{
	"channel_simulator": 
	[
		{
			"name": "蚌埠依爱消防电子有限责任公司 多线",
			"recv": "00 03 4F 01 00 05 C3 0C",
			"rspd": "00 03 0A 00 00 00 04 00 08 00 10 00 00 83 F3"
		}
		,
		{
			"name": "蚌埠依爱消防电子有限责任公司 火灾报警主机",
			"recv": "00 03 00 01 00 79 D4 39",
			"rspd": "00 03 F2 00 00 00 00 00 00 00 00 00 00 00 00 00 00 00 00 00 00 00 00 00 01 00 01 00 01 00 01 00 01 00 01 00 01 00 01 00 01 00 01 00 02 00 02 00 02 00 02 00 02 00 02 00 02 00 02 00 02 00 0200 04 00 04 00 04 00 04 00 04 00 04 00 04 00 04 00 04 00 04 00 08 00 08 00 08 00 08 00 08 00 08 00 08 00 08 00 08 00 08 00 10 00 10 00 10 00 10 00 10 00 10 00 10 00 10 00 10 00 10 00 80 00 80 00 80 00 80 00 80 00 80 00 80 00 80 00 80 00 80 00 00 00 00 00 00 00 00 00 00 00 00 00 00 00 00 00 00 00 00 00 00 00 00 00 00 00 00 00 00 00 00 00 00 00 00 00 00 00 00 00 00 00 00 00 00 00 00 00 00 00 00 00 00 00 00 00 00 00 00 00 00 00 00 00 00 00 00 00 00 00 00 00 00 00 00 00 00 00 00 00 00 00 00 00 00 00 00 00 00 00 00 00 00 00 00 00 00 00 00 00 00 FC A2"
		}
		,
		{
			"name": "旗芯电子QX-DO24-设控制",
			"recv": "00 06 00 0C FF FF 49 A8",
			"rspd": "01 06 00 0c ff ff 48 79"
		}
		,
		{
			"name": "旗芯电子QX-DO24-设频率",
			"recv": "00 10 00 06 00 02 04 00 00 07 D0 74 D5",
			"rspd": "01 10 00 06 00 02 a1 c9"
		}
		,	
		{
			"name": "旗芯电子QX-DO24-设占空比",
			"recv": "00 06 00 00 01 F4 88 0C",
			"rspd": "01 06 00 00 01 f4 89 dd"
		}
		,	
		{
			"name": "旗芯电子QX-DO24-读控制",
			"recv": "00 03 00 0C 00 04 85 DB",
			"rspd": "01 03 08 00 00 00 00 00 00 00 00 95 d7 "
		}
		,	
		{
			"name": "旗芯电子QX-DO24-读频率",
			"recv": "00 03 00 04 00 08 04 1C",
			"rspd": "01 03 10 00 00 03 e8 00 00 03 e8 00 00 03 e8 00 00 03 e8 b8 e2  "
		}
		,	
		{
			"name": "旗芯电子QX-DO24-读占空比",
			"recv": "00 03 00 00 00 04 45 D8",
			"rspd": "01 03 08 01 f4 01 f4 01 f4 01 f4 11 c9 "
		}
		,		
		{
			"name": "美的空调DM4",
			"recv": "AA A0 A1 C1 80 18 00 00 00 00 00 00 66 55",
			"rspd": "aa a1 a0 c1 b1 80 18 00 00 00 00 00 b5 55"
		}
		,		
		{
			"name": "美的空调DM4",
			"recv": "AA A0 A1 C2 00 00 00 00 00 00 00 00 FD 55",
			"rspd": "aa a1 a0 c2 b1 80 18 02 19 00 00 00 99 55"
		}
		,		
		{
			"name": "美的空调DM4",
			"recv": "aa a0 a1 c9 a1 00 00 00 00 00 00 00 55 55",
			"rspd": "aa a1 a0 c9 a1 00 b1 00 b2 00 00 00 f2 55 "
		}
		,		
		{
			"name": "美的空调DM4",
			"recv": "aa a0 a1 c2 b1 00 00 00 00 00 00 00 4c 55",
			"rspd": "aa a1 a0 c2 b1 80 18 02 19 00 00 00 99 55"
		}
		,		
		{
			"name": "美的空调DM4",
			"recv": "aa a0 a1 c1 b1 80 18 00 00 00 00 00 b5 55",
			"rspd": "aa a1 a0 c1 b1 80 18 00 00 00 00 00 b5 55"
		}
		,		{
			"name": "正泰三相电表DT-SU666",
			"recv": "32031032000a6501",
			"rspd": "32 03 14 41 fa f5 c3 41 fa f5 c3 00 00 00 00 00 00 00 00 00 00 00 00 83 63 "
		}
		,
		{
			"name": "正泰三相电表DT-SU666",
			"recv": "32031028000a44c6",
			"rspd": "32 03 14 00 00 00 00 00 00 00 00 00 00 00 00 00 00 00 00 00 00 00 00 a0 97  "
		}
		,
		{
			"name": "正泰三相电表DT-SU666",
			"recv": "3203101e000aa4c8",
			"rspd": "32 03 14 44 4e 68 f6 44 4e 68 f6 00 00 00 00 00 00 00 00 00 00 00 00 c6 8c  "
		}
		,
		{
			"name": "正泰三相电表DT-SU666",
			"recv": "320320380010cbc8",
			"rspd": "32 03 20 00 00 00 00 00 00 00 00 00 00 00 00 00 00 00 00 00 00 00 00 00 00 00 00 45 9c 20 00 41 10 00 00 1f e2"
		}
		,
		{
			"name": "正泰三相电表DT-SU666",
			"recv": "3203202a00086bc7",
			"rspd": "32 03 10 44 6e 40 00 44 7a 00 00 42 e2 00 00 44 63 40 00 9a a6 "
		}
		,
		{
			"name": "正泰三相电表DT-SU666",
			"recv": "3203201a00086bc8",
			"rspd": "32 03 10 c3 6e 00 00 42 2c 00 00 c2 c0 00 00 c3 39 00 00 dc 30  "
		}
		,
		{
			"name": "正泰三相电表DT-SU666-读三相电压",
			"recv": "320320120008ea0a",
			"rspd": "32 03 10 45 20 50 00 45 05 e0 00 41 30 00 00 43 cd 00 00 04 df "
		}
		,
		{
			"name": "正泰三相电表DT-SU666-读三相电压/电流",
			"recv": "3204200000127e04",
			"rspd": "32 04 24 45 66 30 00 45 71 f0 00 45 68 d0 00 44 ff 20 00 45 0a 30 00 45 0d 30 00 44 80 c0 00 42 3c 00 00 43 4d 00 00 44 20"
		}
		,
		{
			"name": "haiwu-v100：GetAlarm",
			"recv": "7e 31 30 30 31 36 30 34 34 30 30 30 30 46 44 42 30 0d",
			"rspd": "7e 31 30 30 31 36 30 30 30 30 30 34 43 30 31 30 30 32 30 32 30 32 30 32 30 32 30 30 30 30 30 30 30 30 30 30 30 31 39 30 30 30 30 30 30 30 30 30 30 32 30 30 30 32 30 30 30 32 30 30 30 30 30 30 30 30 30 32 30 30 30 30 30 30 30 32 30 32 30 30 30 30 30 30 30 32 30 32 30 45 46 33 43 0d"
		}
		,
		{
			"name": "haiwu-v100：GetAnalog",
			"recv": "7e 31 30 30 31 36 30 34 32 30 30 30 30 46 44 42 32 0d",
			"rspd": "7e 31 30 30 31 36 30 30 30 32 30 34 41 30 30 45 38 32 30 32 30 32 30 32 30 30 30 30 30 32 30 32 30 32 30 32 30 32 30 32 30 30 30 31 42 32 30 32 30 32 30 32 30 32 30 32 30 32 30 32 30 30 36 2d 2d 2d 2d 30 30 31 41 32 30 32 30 30 30 31 42 30 35 39 46 32 42 31 30 45 46 31 31 0d"
		}
		,
		{
			"name": "haiwu-v100：GetManu",
			"recv": "7e 31 30 30 31 36 30 35 31 30 30 30 30 46 44 42 32 0d",
			"rspd": "7e 31 30 30 31 36 30 30 30 36 30 34 36 53 2d 41 43 20 20 20 20 20 20 20 20 20 20 20 20 20 20 20 20 20 20 20 20 20 20 20 20 20 20 31 33 31 56 35 2d 41 2e 31 20 20 20 20 20 20 20 20 20 20 20 47 44 20 48 57 20 20 20 20 20 20 20 20 20 20 20 20 20 20 20 46 32 45 44 0d"
		}
		,
		{
			"name": "haiwu-v100：GetParam",
			"recv": "7e 31 30 30 31 36 30 34 37 30 30 30 30 46 44 41 44 0d",
			"rspd": "7e 31 30 30 31 36 30 30 30 41 30 34 32 32 30 32 30 32 30 32 30 30 30 32 33 30 30 30 30 30 30 35 41 32 30 32 30 30 30 31 39 30 39 30 30 30 31 30 30 30 33 32 30 32 30 30 30 30 30 30 30 31 38 30 30 32 32 30 30 30 30 30 30 30 32 30 30 30 32 46 30 45 45 0d"
		}
		,
		{
			"name": "haiwu-v100：GetSwitch",
			"recv": "7e 31 30 30 31 36 30 34 33 30 30 30 30 46 44 42 31 0d",
			"rspd": "7e 31 30 30 31 36 30 30 30 37 30 31 38 31 30 30 30 30 39 30 31 30 30 32 30 30 30 30 30 32 30 30 30 32 30 32 30 46 39 31 35 0d"
		}
		,
		{
			"name": "haiwu-v100：GetTime",
			"recv": "7e 31 30 30 31 36 30 34 44 30 30 30 30 46 44 41 30 0d",
			"rspd": "7e 31 30 30 31 36 30 30 30 32 30 30 45 30 30 30 30 30 30 30 30 30 30 30 30 30 30 46 42 30 31 0d"
		}
		,
		{
			"name": "haiwu-v100：GetVersion",
			"recv": "7e 31 30 30 31 36 30 34 46 30 30 30 30 46 44 39 45 0d",
			"rspd": "7e 31 30 30 31 36 30 30 30 30 30 30 30 46 44 42 38 0d"
		}
		,
		{
			"name": "RTU模式：某充电桩的温度传感器",
			"recv": "01 03 00 01 00 03 54 0B",
			"rspd": "01 03 00 06 45 21 45 23 45 34 36 21"
		}
		,
		{
			"name": "RTU模式：建大仁科",
			"recv": "01 03 00 10 00 08 45 c9",
			"rspd": "01 03 10 00 00 00 00 00 00 00 00 00 00 00 00 00 00 00 00 E4 59 "
		}
		,
		{
			"name": "RTU模式：建大仁科",
			"recv": "01 06 00 08 00 00 08 08",
			"rspd": "01 06 00 08 00 00 08 08"
		}
		,
		{
			"name": "RTU模式：建大仁科",
			"recv": "01 06 00 08 00 01 c9 c8",
			"rspd": "01 06 00 08 00 01 c9 c8"
		}
		,
		{
			"name": "tcl空调",
			"recv": "f4 f5 09 00 00 6f 00 00 84 61 00 00 5d f4 fb",
			"rspd": "f4 f5 09 00 00 6f 00 00 84 61 00 00 5d f4 fb"
		}
		,
		{
			"name": "tcl空调",
			"recv": "F4 F5 05 00 00 0D 01 00 13 F4 FB",
			"rspd": "F4 F5 05 00 00 0D 01 00 13 F4 FB"
		}
		,
		{
			"name": "tcl空调",
			"recv": "f4 f5 05 00 00 70 00 00 75 f4 fb",
			"rspd": "f4 f5 0d 00 00 70 00 00 00 00 00 00 00 00 00 00 7d f4 fb"
		}
		,
		{
			"name": "haier-ycj-a002",
			"recv": "f4 f5 08 00 ff 00 00 01 00 00 08 fb",
			"rspd": "f4 f5 06 00 ff 00 00 10 15 fb"
		}
		,
		{
			"name": "haier-ycj-a002",
			"recv": "f4 f5 06 00 ff 00 00 3d 42 fb",
			"rspd": "f4 f5 0a 00 ff 00 00 3d 00 00 00 00 46 fb"
		}
		,
		{
			"name": "haier-ycj-a002",
			"recv": "f4 f5 06 00 ff 00 00 3e 43 fb",
			"rspd": "f4 f5 0a 00 ff 00 00 3e 00 00 00 00 47 fb"
		}
		,
		{
			"name": "RTU模式：QD6000",
			"recv": "01 03 00 00 00 01 84 0A",
			"rspd": "01 03 02 00 00 B8 44"
		}
		,
		{
			"name": "RTU模式：QD6000",
			"recv": "01 03 00 00 00 02 C4 0B",
			"rspd": "01 03 02 00 00 00 00 72 33"
		}
		,
		{
			"name": "中科图灵：五合一LORAWAN",
			"channel_name": "channel-五合一LORAWAN",
			"event1": "24242415100100E510000000B00A0A"
		}
		,
		{
			"name": "RTU模式：法安通7120",
			"recv": "0A 03 01 30 00 03 05 43",
			"rspd": "0A 03 06 13 88 03 E7 03 E9 C1 F4"
		}
		,
		{
			"name": "TCP模式：DOBOT-MG400-读取离散输入状态",
			"recv": "00 00 00 00 00 06 01 02 00 00 00 07",
			"rspd": "00 00 00 00 00 05 01 02 02 00 02"
		}
		,
		{
			"name": "TCP模式：DOBOT-MG400-读取保持寄存器状态",
			"recv": "00 00 00 00 00 06 01 03 0c 17 00 01",
			"rspd": "00 00 00 00 00 05 01 03 02 00 02"
		}
		,
		{
			"name": "TCP模式：DOBOT-MG400-读取线圈状态",
			"recv": "00 00 00 00 00 06 01 01 00 00 00 07",
			"rspd": "00 00 00 00 00 04 01 01 01 8F"
		}
		,
		{
			"name": "TCP模式：DOBOT-MG400-系统:启动",
			"recv": "00 00 00 00 00 06 01 05 00 00 ff 00",
			"rspd": "00 00 00 00 00 06 01 05 00 00 ff 00"
		}
		,
		{
			"name": "TCP模式：DOBOT-MG400-按键1",
			"recv": "00 00 00 00 00 06 01 06 0c 17 00 01",
			"rspd": "00 00 00 00 00 06 01 06 0c 17 00 01"
		}
		,
		{
			"name": "TCP模式：DOBOT-MG400-按键2",
			"recv": "00 00 00 00 00 06 01 06 0c 17 00 02",
			"rspd": "00 00 00 00 00 06 01 06 0c 17 00 02"
		}
		,
		{
			"name": "不负的MOBUS设备-获取A相电流",
			"recv": "01 03 00 45 00 02 14 1E",
			"rspd": "01 03 04 43 55 66 80 D5 A7"
		}
		,
		{
			"name": "上海电表-获取当前有功电量集合",
			"recv": "FE0068AAAAAAAAAAAA68010252C3E416",
			"rspd": "FEFEFE6812140006072068810652C3373639339816"
		}
		,
		{
			"name": "上海电表-获取反向累计电量",
			"recv": "FE0068AAAAAAAAAAAA68010253C3E516",
			"rspd": "FEFEFE 68 121400060720 68 81 06 53C338363933 9A 16"
		}
		,
		{
			"name": "上海电表-获取电表常数（有功）",
			"recv": "FE0068AAAAAAAAAAAA68010263F32516",
			"rspd": "FEFEFE6812140006072068810563F33337339C16"
		}
		,
		{
			"name": "上海电表-获取表号（出厂编号）",
			"recv": "FE0068AAAAAAAAAAAA68010265F32716",
			"rspd": "FEFEFE6812140006072068810865F3454733393A538916"
		}
		,
		{
			"name": "获取用户号（局编号）",
			"recv": "FE0068AAAAAAAAAAAA68010266F32816",
			"rspd": "FEFEFE6812140006072068810866F3454733393A538A16"
		}
		,
		{
			"name": "Modbus-read discrecte inputs",
			"recv": "01 02 00 00 00 0A F8 0D",
			"rspd": "01 82 01 81 60 "
		}
		,
		{
			"name": "Modbus-read holding register",
			"recv": "01 03 00 00 00 0A C5 CD ",
			"rspd": "01 03 14 00 65 00 14 00 00 00 00 00 00 00 00 00 00 00 00 00 00 00 00 BE A7 "
		}
		,
		{
			"name": "刘日威解码器-检查版本号",
			"recv": "b0 01 00 fe fe",
			"rspd": "b0 81 03 13 16 13 fe fe"
		}
		,
		{
			"name": "刘日威解码器-查询传感器状态",
			"recv": "b0 02 00 fe fe",
			"rspd": "b0 82 08 01 01 01 00 00 01 00 de fe fe"
		}
		,
		{
			"name": "格丹纳-全自动消解控制器-广播读地址",
			"recv": "ff ff ff ff ff ff 00 00 51 0b",
			"rspd": "22 72 04 03 00 00 80 09 22 72 04 03 00 00 22 04 12 b9 7c"
		}
		,
		{
			"name": "格丹纳-全自动消解控制器-设备检查",
			"recv": "22 72 04 03 00 00 01 00 5c f3",
			"rspd": "22 72 04 03 00 00 81 0f 47 46 44 2d 32 32 37 32 30 34 30 00 00 24 24 66 cd"
		}
		,
		{
			"name": "格丹纳-全自动消解控制器-复位X电机",
			"recv": "22 72 04 03 00 00 12 01 01 ba fa",
			"rspd": "22 72 04 03 00 00 92 02 01 01 a8 c9"
		}
		,
		{
			"name": "格丹纳-全自动消解控制器-复位Y电机",
			"recv": "22 72 04 03 00 00 12 01 02 21 c8",
			"rspd": "22 72 04 03 00 00 92 02 02 01 c0 e3"
		}
		,
		{
			"name": "格丹纳-全自动消解控制器-X支架抬升",
			"recv": "22 72 04 03 00 00 14 02 01 01 5c af ",
			"rspd": "22 72 04 03 00 00 94 01 01 8f 20"
		}
		,
		{
			"name": "格丹纳-全自动消解控制器-往某个孔位加样",
			"recv": "22 72 04 03 00 00 13 05 05 01 01 00 64 50 83 ",
			"rspd": "22 72 04 03 00 00 93 05 01 01 01 00 64 5d 28"
		}
		,
		{
			"name": "ZXDU58-获取模拟量量化数据",
			"recv": "7E3230303134303431453030323030464433440D",
			"rspd": "7E3230303134303030463033453131303142363742363434333745333535423433363634383632343332303230323032303030354532313433343032303230323032303230323032303230463046440D0D"
		}
		,
		{
			"name": "ZXDU58-获取开关输入状态",
			"recv": "7E3230303134303433453030323030464433420D",
			"rspd": "7E323030313430303034303043303130303033303030313030464235440D0D"
		}
		,
		{
			"name": "ZXDU58-获取告警信息",
			"recv": "7E3230303134303434453030323030464433410D",
			"rspd": "7E3230303134303030453032303030303130303030303030303030303530303030303030303030303030303030463739430D0D"
		}
		,
		{
			"name": "ZXDU58-获取整流系统模拟量量化数据",
			"recv": "7E323030313431343130303030464442330D",
			"rspd": "7E323030313431303034303834313136344642353534323043443741333730343030303530423837453430303045303741373434303030353042383745343030304145343738313430303030303030383034303030393939393739343030303030303030303030303030303030303030303030303030303030303030303030303030303030303030303030303030303030453331420D0D"
		}
		,
		{
			"name": "CE+T-Read Alarms and events table ",
			"recv": "0103041F000734FE",
			"rspd": "01 03 0E 00 00 00 00 00 00 00 00 00 00 08 21 00 00 BD 7F"
		}
		,
		{
			"name": "CE+T-Read System Measures Table ",
			"recv": "0103042E0045E500",
			"rspd": "01 03 8A 00 E5 00 35 03 79 01 F4 00 09 02 1D 00 00 00 00 00 00 00 00 00 11 01 30 00 00 00 15 01 30 00 3B 00 0F 01 19 00 00 00 00 00 00 00 00 00 00 00 00 00 00 00 00 00 00 00 00 00 00 00 00 00 00 00 00 00 00 00 00 00 00 00 00 00 00 00 00 00 00 00 00 00 00 00 00 00 00 00 00 00 00 00 00 00 00 00 00 00 00 00 00 00 00 00 00 00 00 00 00 00 00 00 00 00 00 00 00 00 00 00 00 00 00 00 00 00 00 00 00 00 00 00 00 00 00 00 00 00 00 28 4F",
			"rsrd": "01 03 8A 00 E5 00 35 03 79 01 F4 00 09 02 1D 00 00 00 00 00 00 00 00 00 11 01 30 00 00 00 15 01 30 00 3B 00 0F 01 19 00 00 00 00 00 00 00 00 00 01 00 00 00 00 00 00 00 01 00 00 00 00 01 00 00 00 00 00 00 00 00 00 00 00 00 00 00 00 00 00 00 00 00 00 00 00 00 00 00 00 00 00 00 00 00 00 00 00 00 00 00 00 00 00 00 00 00 00 00 00 00 00 00 00 00 00 00 00 00 00 00 00 00 00 00 00 00 00 00 00 00 00 00 00 00 00 00 00 00 00 00 00 AC 63"
		}
		,
		{
			"name": "CE+T-Read System Work Configuration Table",
			"recv": "010304D80028C4DF",
			"rspd": "01 03 50 00 01 00 00 00 00 00 00 00 01 00 01 00 00 00 01 00 00 00 00 00 00 00 01 00 01 00 01 00 01 00 00 00 00 00 00 00 00 00 00 00 00 00 00 00 00 00 00 00 00 00 00 00 00 00 00 00 04 00 03 23 28 00 30 00 00 00 00 00 00 00 00 00 00 00 00 00 00 00 00 5C BC  "
		}
		,
		{
			"name": "CE+T-Read System  Information Table",
			"recv": "010306A40061C549",
			"rspd": "01 03 C2 23 28 00 35 00 00 00 00 00 00 03 79 00 00 00 00 00 00 02 1D 00 00 00 00 00 00 23 28 00 00 00 00 00 00 03 20 03 02 01 D6 01 A4 00 FA 00 D2 00 00 00 00 00 03 00 03 00 03 00 00 00 00 00 00 00 03 00 00 00 00 00 00 00 03 00 03 00 00 00 00 00 00 00 00 00 00 00 00 00 00 00 00 00 01 00 64 00 03 00 03 00 03 00 00 00 00 00 00 00 00 00 00 00 00 00 00 00 00 00 00 00 00 00 00 00 00 00 00 0B B8 0B B8 0B B8 00 00 00 00 00 00 00 00 00 00 00 00 00 00 00 00 00 00 00 00 00 00 00 00 00 00 00 00 00 11 00 50 00 FF 00 3E 00 3E 00 FF 00 FF 00 FF 00 FF 00 FF 00 FF 00 FF 00 FF 00 FF 00 FF 00 FF 00 FF 14 25"
		}
		,
		{
			"name": "CE+T-Read System Alarm Information Table",
			"recv": "010307D00019848D",
			"rspd": "01 03 32 00 00 00 00 00 00 00 00 00 00 00 00 00 00 00 00 00 00 00 00 00 00 00 00 00 00 00 00 00 00 00 00 00 00 00 00 00 00 00 00 00 00 00 00 00 00 00 00 00 00 EA EA "
		}
		,
		{
			"name": "CE+T-Read System Alarm Bit Table",
			"recv": "010309C40001C66B",
			"rspd": "01 03 02 00 08 B9 82"
		}
		,
		{
			"name": "DLT645 1997 REDATA (当前)正向有功总电能",
			"recv": "fe 68 11 11 11 53 12 35 68 01 02 43 c3 a6 16",
			"rspd": "FE FE FE FE 68 11 11 11 53 12 35 68 81 07 43 C3 BC 76 46 33 34 0A 16"
		}
		,
		{
			"name": "获取门禁记录",
			"recv": "7e 31 30 30 31 38 30 34 41 41 30 30 36 46 32 45 32 30 30 46 43 33 42 0d ",
			"rspd1": "7E31303031383430303330314330303334463242463442323030373033313331323538333830303030463744330D"
		}
		,
		{
			"name": "告警记录",
			"channel_name": "channel-simulator",
			"event": "7E31303031383430303330314330303334463242463442323030373033313331323538333830303030463744330D"
		}
		,
		{
			"name": "读取告警状态",
			"recv": "7E323030323431343430303030464441460D ",
			"rspd": "7E323030323431303034303043303030322020303020203030464239450D"
		}		,
		{
			"name": "欧姆龙-连接PLC",
			"recv": "46 49 4E 53 00 00 00 0C 00 00 00 00 00 00 00 00 00 00 00 71",
			"rspd": "46 49 4E 53 00 00 00 10 00 00 00 01 00 00 00 00 00 00 00 71 00 00 00 0A"
		}
		,
		{
			"name": "欧姆龙-读WR.10.0 整型   结果=12",
			"recv": "46 49 4E 53 00 00 00 1A 00 00 00 02 00 00 00 00 80 00 02 00 0A 00 00 71 00 FF 01 01 B1 00 0A 00 00 01",
			"rspd": "46 49 4E 53 00 00 00 18 00 00 00 02 00 00 00 00 C0 00 02 00 71 00 00 0A 00 FF 01 01 00 00 19 B3"
		}
		,
		{
			"name": "欧姆龙-读WR.10.01 布尔型   结果=1(第2位为1)",
			"recv": "46 49 4E 53 00 00 00 1A 00 00 00 02 00 00 00 00 80 00 02 00 0A 00 00 71 00 FF 01 01 B1 00 0A 00 00 01",
			"rspd": "46 49 4E 53 00 00 00 18 00 00 00 02 00 00 00 00 C0 00 02 00 71 00 00 0A 00 FF 01 01 00 00 00 0C"
		}
		,
		{
			"name": "欧姆龙-读WR.10.0 双整型",
			"recv": "46 49 4E 53 00 00 00 1A 00 00 00 02 00 00 00 00 80 00 02 00 0A 00 00 71 00 FF 01 01 B1 00 0A 00 00 02",
			"rspd": "46 49 4E 53 00 00 00 1A 00 00 00 02 00 00 00 00 C0 00 02 00 71 00 00 0A 00 FF 01 01 00 00 00 0C 3F 7B"
		}
		,
		{
			"name": "读DM.10.0 浮点型   结果=1.5",
			"recv": "46 49 4E 53 00 00 00 1A 00 00 00 02 00 00 00 00 80 00 02 00 0A 00 00 71 00 FF 01 01 82 00 0A 00 00 02",
			"rspd": "46 49 4E 53 00 00 00 1A 00 00 00 02 00 00 00 00 C0 00 02 00 71 00 00 0A 00 FF 01 01 00 00 00 00 3F C0"
		}
		,
		{
			"name": "读WR.480.0 字符型 长度6位  结果=HJK12345678",
			"recv": "46 49 4E 53 00 00 00 1A 00 00 00 02 00 00 00 00 80 00 02 00 0A 00 00 71 00 FF 01 01 B1 01 E0 00 00 06",
			"rspd": "46 49 4E 53 00 00 00 22 00 00 00 02 00 00 00 00 C0 00 02 00 71 00 00 0A 00 FF 01 01 00 00 48 4A 4B 31 32 33 34 35 36 37 38 00"
		}
		,
		{
			"name": "写WR.10.01 写入值0 布尔型",
			"recv": "46 49 4E 53 00 00 00 1A 00 00 00 02 00 00 00 00 80 00 02 00 0A 00 00 71 00 FF 01 01 B1 00 0A 00 00 01",
			"rspd": "46 49 4E 53 00 00 00 18 00 00 00 02 00 00 00 00 C0 00 02 00 71 00 00 0A 00 FF 01 01 00 00 00 0F"
		}
		,
		{
			"name": "写WR.10.01 写入值0 布尔型",
			"recv": "46 49 4E 53 00 00 00 1C 00 00 00 02 00 00 00 00 80 00 02 00 0A 00 00 71 00 00 01 02 B1 00 0A 00 00 01 00 0D",
			"rspd": "46 49 4E 53 00 00 00 16 00 00 00 02 00 00 00 00 C0 00 02 00 71 00 00 0A 00 00 01 02 00 00"
		}
		,
		{
			"name": "写WR.10.0 写入值6 整型",
			"recv": "46 49 4E 53 00 00 00 1C 00 00 00 02 00 00 00 00 80 00 02 00 0A 00 00 71 00 00 01 02 B1 00 0A 00 00 01 00 06",
			"rspd": "46 49 4E 53 00 00 00 16 00 00 00 02 00 00 00 00 C0 00 02 00 71 00 00 0A 00 00 01 02 00 00"
		}
		,
		{
			"name": "写WR.10.0 写入值1065025588 双整型",
			"recv": "46 49 4E 53 00 00 00 1C 00 00 00 02 00 00 00 00 80 00 02 00 0A 00 00 71 00 00 01 02 B1 00 0A 00 00 01 00 34",
			"rspd": "46 49 4E 53 00 00 00 16 00 00 00 02 00 00 00 00 C0 00 02 00 71 00 00 0A 00 00 01 02 00 00"
		}
		,
		{
			"name": "写WR.10.0 写入值1065025588 双整型",
			"recv": "46 49 4E 53 00 00 00 1C 00 00 00 02 00 00 00 00 80 00 02 00 0A 00 00 71 00 00 01 02 B1 00 0B 00 00 01 3F 7B",
			"rspd": "46 49 4E 53 00 00 00 16 00 00 00 02 00 00 00 00 C0 00 02 00 71 00 00 0A 00 00 01 02 00 00"
		}
		,
		{
			"name": "写DM.10.0 写入值0.68 浮点型",
			"recv": "46 49 4E 53 00 00 00 1C 00 00 00 02 00 00 00 00 80 00 02 00 0A 00 00 71 00 00 01 02 82 00 0A 00 00 01 14 7B",
			"rspd": "46 49 4E 53 00 00 00 16 00 00 00 02 00 00 00 00 C0 00 02 00 71 00 00 0A 00 00 01 02 00 00"
		}
		,
		{
			"name": "写DM.10.0 写入值0.68 浮点型",
			"recv": "46 49 4E 53 00 00 00 1C 00 00 00 02 00 00 00 00 80 00 02 00 0A 00 00 71 00 00 01 02 82 00 0B 00 00 01 3F 2E",
			"rspd": "46 49 4E 53 00 00 00 16 00 00 00 02 00 00 00 00 C0 00 02 00 71 00 00 0A 00 00 01 02 00 00"
		}
		,
		{
			"name": "写WR.480.0 写入值HJK12345678 字符型",
			"recv": "46 49 4E 53 00 00 00 1C 00 00 00 02 00 00 00 00 80 00 02 00 0A 00 00 71 00 00 01 02 B1 01 E0 00 00 01 48 4A",
			"rspd": "46 49 4E 53 00 00 00 16 00 00 00 02 00 00 00 00 C0 00 02 00 71 00 00 0A 00 00 01 02 00 00"
		}
		,
		{
			"name": "写WR.480.0 写入值HJK12345678 字符型",
			"recv": "46 49 4E 53 00 00 00 1C 00 00 00 02 00 00 00 00 80 00 02 00 0A 00 00 71 00 00 01 02 B1 01 E1 00 00 01 4B 31",
			"rspd": "46 49 4E 53 00 00 00 16 00 00 00 02 00 00 00 00 C0 00 02 00 71 00 00 0A 00 00 01 02 00 00"
		}
		,
		{
			"name": "写WR.480.0 写入值HJK12345678 字符型",
			"recv": "46 49 4E 53 00 00 00 1C 00 00 00 02 00 00 00 00 80 00 02 00 0A 00 00 71 00 00 01 02 B1 01 E2 00 00 01 32 33",
			"rspd": "46 49 4E 53 00 00 00 16 00 00 00 02 00 00 00 00 C0 00 02 00 71 00 00 0A 00 00 01 02 00 00"
		}
		,
		{
			"name": "写WR.480.0 写入值HJK12345678 字符型",
			"recv": "46 49 4E 53 00 00 00 1C 00 00 00 02 00 00 00 00 80 00 02 00 0A 00 00 71 00 00 01 02 B1 01 E3 00 00 01 34 35",
			"rspd": "46 49 4E 53 00 00 00 16 00 00 00 02 00 00 00 00 C0 00 02 00 71 00 00 0A 00 00 01 02 00 00"
		}
		,
		{
			"name": "写WR.480.0 写入值HJK12345678 字符型",
			"recv": "46 49 4E 53 00 00 00 1C 00 00 00 02 00 00 00 00 80 00 02 00 0A 00 00 71 00 00 01 02 B1 01 E4 00 00 01 36 37",
			"rspd": "46 49 4E 53 00 00 00 16 00 00 00 02 00 00 00 00 C0 00 02 00 71 00 00 0A 00 00 01 02 00 00"
		}
		,
		{
			"name": "读取水表数据",
			"recv": "fe fe fe 68 10 01 00 00 05 08 00 00 01 03 90 1F 00 39 16",
			"rspd": "fe fe fe 68 10 44 33 22 11 00 33 78 81 16 90 1F 00 00 77 66 55 2C 00 77 66 55 2C 31 01 22 11 05 15 20 21 84 13 16"
		}

	]
}